!Agilent Technologies,E8363A,US42130174,A.06.04.32
!Agilent E8363A: A.06.04.32
!Date: Tuesday, November 28, 2023 16:33:00
!Correction: S11(Full 1 Port(1)) 
!S1P File: Measurement: S11:
# Hz S  RI   R 50
2000000000  2.508745e-001  -8.544230e-001 
2005000000  1.797840e-001  -8.701815e-001 
2010000000  1.081587e-001  -8.809143e-001 
2015000000  3.919766e-002  -8.845440e-001 
2020000000  -2.925444e-002  -8.809741e-001 
2025000000  -9.803226e-002  -8.783255e-001 
2030000000  -1.742585e-001  -8.622039e-001 
2035000000  -2.399377e-001  -8.499695e-001 
2040000000  -3.095358e-001  -8.218092e-001 
2045000000  -3.737416e-001  -7.912301e-001 
2050000000  -4.356912e-001  -7.594737e-001 
2055000000  -4.964546e-001  -7.171979e-001 
2060000000  -5.544728e-001  -6.707092e-001 
2065000000  -6.084478e-001  -6.239610e-001 
2070000000  -6.530445e-001  -5.672452e-001 
2075000000  -7.008889e-001  -5.108954e-001 
2080000000  -7.409366e-001  -4.481893e-001 
2085000000  -7.741804e-001  -3.845331e-001 
2090000000  -7.996568e-001  -3.205327e-001 
2095000000  -8.211421e-001  -2.486410e-001 
2100000000  -8.389802e-001  -1.738802e-001 
2105000000  -8.502937e-001  -1.051550e-001 
2110000000  -8.526564e-001  -2.820667e-002 
2115000000  -8.499352e-001  4.215739e-002 
2120000000  -8.434427e-001  1.169498e-001 
2125000000  -8.301471e-001  1.930386e-001 
2130000000  -8.070481e-001  2.597138e-001 
2135000000  -7.815621e-001  3.324019e-001 
2140000000  -7.441093e-001  3.951119e-001 
2145000000  -7.092432e-001  4.614687e-001 
2150000000  -6.617982e-001  5.218102e-001 
2155000000  -6.155273e-001  5.762579e-001 
2160000000  -5.567120e-001  6.258251e-001 
2165000000  -4.988630e-001  6.739377e-001 
2170000000  -4.376902e-001  7.158303e-001 
2175000000  -3.706601e-001  7.468050e-001 
2180000000  -3.019034e-001  7.782975e-001 
2185000000  -2.285326e-001  7.990499e-001 
2190000000  -1.555579e-001  8.146082e-001 
2195000000  -7.682588e-002  8.254897e-001 
2200000000  -2.124602e-003  8.228146e-001 
2205000000  7.505291e-002  8.185996e-001 
2210000000  1.487575e-001  8.039432e-001 
2215000000  2.199468e-001  7.849246e-001 
2220000000  2.955326e-001  7.551809e-001 
2225000000  3.654232e-001  7.219253e-001 
2230000000  4.306285e-001  6.805066e-001 
2235000000  4.892319e-001  6.343267e-001 
2240000000  5.474684e-001  5.803686e-001 
2245000000  5.967747e-001  5.219491e-001 
2250000000  6.389185e-001  4.574182e-001 
2255000000  6.823862e-001  3.922806e-001 
2260000000  7.078385e-001  3.171793e-001 
2265000000  7.338042e-001  2.432515e-001 
2270000000  7.451213e-001  1.685125e-001 
2275000000  7.554826e-001  9.299080e-002 
2280000000  7.521690e-001  1.373165e-002 
2285000000  7.418637e-001  -6.354228e-002 
2290000000  7.294454e-001  -1.367041e-001 
2295000000  6.991087e-001  -2.118334e-001 
2300000000  6.694786e-001  -2.775824e-001 
2305000000  6.285874e-001  -3.463412e-001 
2310000000  5.807195e-001  -4.045691e-001 
2315000000  5.263994e-001  -4.617623e-001 
2320000000  4.646762e-001  -5.102720e-001 
2325000000  3.990790e-001  -5.481492e-001 
2330000000  3.296412e-001  -5.796061e-001 
2335000000  2.596850e-001  -6.034344e-001 
2340000000  1.859646e-001  -6.214513e-001 
2345000000  1.106227e-001  -6.274853e-001 
2350000000  3.572550e-002  -6.239484e-001 
2355000000  -3.582776e-002  -6.117693e-001 
2360000000  -1.035434e-001  -5.934330e-001 
2365000000  -1.717194e-001  -5.650346e-001 
2370000000  -2.323932e-001  -5.268246e-001 
2375000000  -2.884849e-001  -4.850202e-001 
2380000000  -3.352965e-001  -4.363167e-001 
2385000000  -3.782696e-001  -3.821114e-001 
2390000000  -4.127086e-001  -3.258372e-001 
2395000000  -4.399579e-001  -2.678360e-001 
2400000000  -4.601401e-001  -2.029615e-001 
2405000000  -4.699987e-001  -1.372211e-001 
2410000000  -4.713633e-001  -7.435052e-002 
2415000000  -4.636838e-001  -1.265981e-002 
2420000000  -4.505297e-001  4.530048e-002 
2425000000  -4.285445e-001  1.035209e-001 
2430000000  -3.971214e-001  1.545177e-001 
2435000000  -3.629581e-001  2.018890e-001 
2440000000  -3.219638e-001  2.415822e-001 
2445000000  -2.775420e-001  2.748418e-001 
2450000000  -2.295378e-001  3.014454e-001 
2455000000  -1.790646e-001  3.196634e-001 
2460000000  -1.283695e-001  3.318432e-001 
2465000000  -7.479841e-002  3.350970e-001 
2470000000  -2.735193e-002  3.306868e-001 
2475000000  2.077009e-002  3.205321e-001 
2480000000  6.658312e-002  3.045062e-001 
2485000000  1.083914e-001  2.805539e-001 
2490000000  1.446784e-001  2.527807e-001 
2495000000  1.766060e-001  2.212647e-001 
2500000000  2.058023e-001  1.857390e-001 
2505000000  2.239311e-001  1.432007e-001 
2510000000  2.379778e-001  1.015515e-001 
2515000000  2.438210e-001  5.765361e-002 
2520000000  2.411860e-001  1.292516e-002 
2525000000  2.323646e-001  -2.774177e-002 
2530000000  2.170934e-001  -6.745595e-002 
2535000000  1.971619e-001  -1.021875e-001 
2540000000  1.731966e-001  -1.336620e-001 
2545000000  1.415151e-001  -1.587153e-001 
2550000000  1.124905e-001  -1.814195e-001 
2555000000  7.487639e-002  -2.002887e-001 
2560000000  3.498999e-002  -2.104363e-001 
2565000000  -5.130726e-003  -2.144500e-001 
2570000000  -4.269794e-002  -2.111676e-001 
2575000000  -8.259238e-002  -2.040928e-001 
2580000000  -1.196663e-001  -1.901510e-001 
2585000000  -1.525962e-001  -1.710641e-001 
2590000000  -1.854234e-001  -1.473161e-001 
2595000000  -2.105151e-001  -1.199643e-001 
2600000000  -2.364093e-001  -8.877952e-002 
2605000000  -2.571060e-001  -5.268399e-002 
2610000000  -2.700651e-001  -1.472356e-002 
2615000000  -2.796207e-001  2.719075e-002 
2620000000  -2.832854e-001  6.827983e-002 
2625000000  -2.815632e-001  1.115701e-001 
2630000000  -2.706681e-001  1.546250e-001 
2635000000  -2.566981e-001  1.956326e-001 
2640000000  -2.374583e-001  2.339019e-001 
2645000000  -2.137852e-001  2.703675e-001 
2650000000  -1.827910e-001  3.063428e-001 
2655000000  -1.463623e-001  3.342062e-001 
2660000000  -1.099470e-001  3.615994e-001 
2665000000  -6.618038e-002  3.844291e-001 
2670000000  -2.079214e-002  4.007069e-001 
2675000000  2.814464e-002  4.093639e-001 
2680000000  7.882446e-002  4.149053e-001 
2685000000  1.267003e-001  4.121240e-001 
2690000000  1.748435e-001  4.036137e-001 
2695000000  2.242646e-001  3.897105e-001 
2700000000  2.688822e-001  3.709775e-001 
2705000000  3.132990e-001  3.473644e-001 
2710000000  3.552114e-001  3.184565e-001 
2715000000  3.939862e-001  2.826179e-001 
2720000000  4.309179e-001  2.457604e-001 
2725000000  4.636186e-001  2.003992e-001 
2730000000  4.886954e-001  1.528064e-001 
2735000000  5.084631e-001  1.008409e-001 
2740000000  5.225675e-001  4.750127e-002 
2745000000  5.321370e-001  -5.871882e-003 
2750000000  5.349181e-001  -6.071015e-002 
2755000000  5.349337e-001  -1.183214e-001 
2760000000  5.242266e-001  -1.753950e-001 
2765000000  5.089702e-001  -2.313757e-001 
2770000000  4.888570e-001  -2.855761e-001 
2775000000  4.598324e-001  -3.359128e-001 
2780000000  4.260765e-001  -3.844789e-001 
2785000000  3.894041e-001  -4.321821e-001 
2790000000  3.447233e-001  -4.747970e-001 
2795000000  2.967202e-001  -5.110600e-001 
2800000000  2.423134e-001  -5.415312e-001 
2805000000  1.833934e-001  -5.697057e-001 
2810000000  1.229270e-001  -5.893725e-001 
2815000000  6.091860e-002  -6.013900e-001 
2820000000  -2.468080e-003  -6.030598e-001 
2825000000  -6.719413e-002  -6.016343e-001 
2830000000  -1.322121e-001  -5.948460e-001 
2835000000  -1.949454e-001  -5.760073e-001 
2840000000  -2.581590e-001  -5.531132e-001 
2845000000  -3.181813e-001  -5.204521e-001 
2850000000  -3.738809e-001  -4.819305e-001 
2855000000  -4.304812e-001  -4.380323e-001 
2860000000  -4.768783e-001  -3.793634e-001 
2865000000  -5.147017e-001  -3.191177e-001 
2870000000  -5.472994e-001  -2.505656e-001 
2875000000  -5.716177e-001  -1.780674e-001 
2880000000  -5.810174e-001  -9.468035e-002 
2885000000  -5.785396e-001  -1.286206e-002 
2890000000  -5.582500e-001  6.809188e-002 
2895000000  -5.252386e-001  1.518036e-001 
2900000000  -4.684635e-001  2.233811e-001 
2905000000  -3.927788e-001  2.815481e-001 
2910000000  -3.018362e-001  3.239428e-001 
2915000000  -1.972919e-001  3.324065e-001 
2920000000  -9.579216e-002  3.051264e-001 
2925000000  -8.051602e-003  2.378756e-001 
2930000000  3.983787e-002  1.413118e-001 
2935000000  4.503832e-002  3.468818e-002 
2940000000  9.247404e-004  -6.188803e-002 
2945000000  -7.882182e-002  -1.247295e-001 
2950000000  -1.709784e-001  -1.480801e-001 
2955000000  -2.624023e-001  -1.370065e-001 
2960000000  -3.403297e-001  -9.656116e-002 
2965000000  -3.993100e-001  -3.791511e-002 
2970000000  -4.408890e-001  3.406968e-002 
2975000000  -4.604516e-001  1.124049e-001 
2980000000  -4.624768e-001  1.874531e-001 
2985000000  -4.529192e-001  2.597537e-001 
2990000000  -4.296191e-001  3.270494e-001 
2995000000  -3.969313e-001  3.915633e-001 
3000000000  -3.588680e-001  4.490368e-001 
