!Agilent Technologies,E8363A,US42130174,A.06.04.32
!Agilent E8363A: A.06.04.32
!Date: Tuesday, November 28, 2023 16:34:05
!Correction: S11(Full 1 Port(1)) 
!S1P File: Measurement: S11:
# Hz S  RI   R 50
2000000000  1.974398e-001  -7.972432e-001 
2005000000  1.272095e-001  -8.038964e-001 
2010000000  5.514768e-002  -8.036108e-001 
2015000000  -1.248557e-002  -7.981261e-001 
2020000000  -7.927448e-002  -7.875212e-001 
2025000000  -1.475855e-001  -7.704444e-001 
2030000000  -2.099259e-001  -7.448336e-001 
2035000000  -2.744606e-001  -7.223455e-001 
2040000000  -3.308694e-001  -6.865599e-001 
2045000000  -3.891435e-001  -6.498500e-001 
2050000000  -4.370035e-001  -6.070973e-001 
2055000000  -4.851121e-001  -5.608991e-001 
2060000000  -5.314130e-001  -5.123315e-001 
2065000000  -5.669767e-001  -4.608501e-001 
2070000000  -6.021520e-001  -4.050947e-001 
2075000000  -6.327870e-001  -3.480402e-001 
2080000000  -6.561685e-001  -2.871976e-001 
2085000000  -6.739942e-001  -2.279729e-001 
2090000000  -6.885920e-001  -1.672125e-001 
2095000000  -6.965185e-001  -1.060772e-001 
2100000000  -7.002398e-001  -4.389794e-002 
2105000000  -7.027642e-001  1.869241e-002 
2110000000  -6.922088e-001  7.633203e-002 
2115000000  -6.810058e-001  1.364610e-001 
2120000000  -6.669804e-001  1.963111e-001 
2125000000  -6.499897e-001  2.548353e-001 
2130000000  -6.238901e-001  3.078173e-001 
2135000000  -5.979947e-001  3.623450e-001 
2140000000  -5.645453e-001  4.093834e-001 
2145000000  -5.324191e-001  4.568954e-001 
2150000000  -4.926832e-001  5.004651e-001 
2155000000  -4.505181e-001  5.431048e-001 
2160000000  -4.055354e-001  5.780430e-001 
2165000000  -3.561973e-001  6.135216e-001 
2170000000  -3.073927e-001  6.426165e-001 
2175000000  -2.533352e-001  6.676685e-001 
2180000000  -1.987895e-001  6.890537e-001 
2185000000  -1.436499e-001  7.051404e-001 
2190000000  -8.595777e-002  7.171606e-001 
2195000000  -2.657750e-002  7.230403e-001 
2200000000  3.129664e-002  7.260494e-001 
2205000000  9.120854e-002  7.198475e-001 
2210000000  1.509104e-001  7.141917e-001 
2215000000  2.070121e-001  7.006386e-001 
2220000000  2.671708e-001  6.816448e-001 
2225000000  3.237482e-001  6.562961e-001 
2230000000  3.771945e-001  6.290873e-001 
2235000000  4.271072e-001  5.950809e-001 
2240000000  4.726340e-001  5.549414e-001 
2245000000  5.181108e-001  5.135444e-001 
2250000000  5.566664e-001  4.649203e-001 
2255000000  5.929275e-001  4.162339e-001 
2260000000  6.208912e-001  3.592848e-001 
2265000000  6.467280e-001  3.013278e-001 
2270000000  6.664699e-001  2.437359e-001 
2275000000  6.799186e-001  1.844220e-001 
2280000000  6.856657e-001  1.235354e-001 
2285000000  6.832048e-001  5.892747e-002 
2290000000  6.808905e-001  -8.667094e-004 
2295000000  6.655783e-001  -6.147357e-002 
2300000000  6.490703e-001  -1.185325e-001 
2305000000  6.245614e-001  -1.756697e-001 
2310000000  5.924305e-001  -2.275899e-001 
2315000000  5.582111e-001  -2.749760e-001 
2320000000  5.152052e-001  -3.211388e-001 
2325000000  4.704856e-001  -3.571078e-001 
2330000000  4.230220e-001  -3.906448e-001 
2335000000  3.726318e-001  -4.165881e-001 
2340000000  3.223017e-001  -4.408742e-001 
2345000000  2.666986e-001  -4.562523e-001 
2350000000  2.125890e-001  -4.632229e-001 
2355000000  1.608705e-001  -4.646257e-001 
2360000000  1.095909e-001  -4.636427e-001 
2365000000  5.981024e-002  -4.570219e-001 
2370000000  1.023862e-002  -4.424658e-001 
2375000000  -3.495798e-002  -4.247640e-001 
2380000000  -7.619953e-002  -4.017960e-001 
2385000000  -1.160611e-001  -3.783693e-001 
2390000000  -1.502791e-001  -3.493482e-001 
2395000000  -1.808505e-001  -3.182146e-001 
2400000000  -2.087249e-001  -2.846071e-001 
2405000000  -2.306292e-001  -2.490948e-001 
2410000000  -2.480885e-001  -2.132879e-001 
2415000000  -2.641959e-001  -1.771574e-001 
2420000000  -2.731717e-001  -1.386402e-001 
2425000000  -2.789184e-001  -1.022309e-001 
2430000000  -2.802580e-001  -6.461819e-002 
2435000000  -2.784945e-001  -2.974227e-002 
2440000000  -2.712979e-001  3.379787e-003 
2445000000  -2.661178e-001  3.401306e-002 
2450000000  -2.538109e-001  6.425073e-002 
2455000000  -2.410957e-001  9.214270e-002 
2460000000  -2.255588e-001  1.178079e-001 
2465000000  -2.063417e-001  1.433268e-001 
2470000000  -1.862634e-001  1.647784e-001 
2475000000  -1.632392e-001  1.818378e-001 
2480000000  -1.401139e-001  1.956375e-001 
2485000000  -1.158614e-001  2.065398e-001 
2490000000  -9.307188e-002  2.159771e-001 
2495000000  -6.924514e-002  2.205307e-001 
2500000000  -4.649236e-002  2.230055e-001 
2505000000  -2.550519e-002  2.227473e-001 
2510000000  -4.157449e-003  2.217328e-001 
2515000000  1.218283e-002  2.157409e-001 
2520000000  2.870657e-002  2.101649e-001 
2525000000  4.420037e-002  2.048307e-001 
2530000000  5.678020e-002  1.957050e-001 
2535000000  6.874861e-002  1.878360e-001 
2540000000  8.103675e-002  1.793971e-001 
2545000000  8.852903e-002  1.694130e-001 
2550000000  9.590213e-002  1.595126e-001 
2555000000  9.953739e-002  1.483484e-001 
2560000000  1.028481e-001  1.391436e-001 
2565000000  1.045683e-001  1.318113e-001 
2570000000  1.060363e-001  1.233843e-001 
2575000000  1.055417e-001  1.155122e-001 
2580000000  1.022302e-001  1.101786e-001 
2585000000  1.014299e-001  1.079790e-001 
2590000000  1.013501e-001  1.023430e-001 
2595000000  9.835912e-002  9.982715e-002 
2600000000  9.598501e-002  9.699758e-002 
2605000000  9.067338e-002  9.629364e-002 
2610000000  8.879700e-002  9.794796e-002 
2615000000  8.590491e-002  1.003261e-001 
2620000000  8.339620e-002  1.034451e-001 
2625000000  8.052966e-002  1.093304e-001 
2630000000  8.163971e-002  1.173885e-001 
2635000000  8.388065e-002  1.260823e-001 
2640000000  8.958014e-002  1.348253e-001 
2645000000  9.638586e-002  1.406227e-001 
2650000000  1.047400e-001  1.479339e-001 
2655000000  1.156529e-001  1.555342e-001 
2660000000  1.278581e-001  1.613036e-001 
2665000000  1.393805e-001  1.661354e-001 
2670000000  1.560286e-001  1.691269e-001 
2675000000  1.706399e-001  1.710419e-001 
2680000000  1.890428e-001  1.713383e-001 
2685000000  2.083945e-001  1.719415e-001 
2690000000  2.298646e-001  1.690824e-001 
2695000000  2.527103e-001  1.608867e-001 
2700000000  2.732234e-001  1.506822e-001 
2705000000  2.952400e-001  1.364718e-001 
2710000000  3.135712e-001  1.195872e-001 
2715000000  3.348020e-001  9.853070e-002 
2720000000  3.495239e-001  7.635216e-002 
2725000000  3.647944e-001  5.226315e-002 
2730000000  3.773960e-001  2.458655e-002 
2735000000  3.853250e-001  -4.623448e-003 
2740000000  3.947182e-001  -3.665676e-002 
2745000000  3.959084e-001  -7.106890e-002 
2750000000  3.974568e-001  -1.071131e-001 
2755000000  3.912967e-001  -1.426567e-001 
2760000000  3.818499e-001  -1.764910e-001 
2765000000  3.692901e-001  -2.111001e-001 
2770000000  3.535472e-001  -2.435163e-001 
2775000000  3.317739e-001  -2.769532e-001 
2780000000  3.072540e-001  -3.100308e-001 
2785000000  2.784117e-001  -3.384606e-001 
2790000000  2.446961e-001  -3.659058e-001 
2795000000  2.083255e-001  -3.872517e-001 
2800000000  1.686885e-001  -4.069494e-001 
2805000000  1.272230e-001  -4.226597e-001 
2810000000  8.490980e-002  -4.322616e-001 
2815000000  3.875837e-002  -4.387756e-001 
2820000000  -7.068905e-003  -4.399027e-001 
2825000000  -5.736949e-002  -4.365636e-001 
2830000000  -1.048467e-001  -4.253220e-001 
2835000000  -1.524436e-001  -4.101161e-001 
2840000000  -1.991698e-001  -3.881645e-001 
2845000000  -2.420796e-001  -3.611208e-001 
2850000000  -2.841827e-001  -3.287306e-001 
2855000000  -3.228370e-001  -2.877163e-001 
2860000000  -3.552784e-001  -2.433973e-001 
2865000000  -3.843642e-001  -1.929716e-001 
2870000000  -4.021835e-001  -1.406630e-001 
2875000000  -4.197504e-001  -8.159589e-002 
2880000000  -4.229283e-001  -1.900783e-002 
2885000000  -4.226462e-001  4.347945e-002 
2890000000  -4.077058e-001  1.086307e-001 
2895000000  -3.812072e-001  1.716166e-001 
2900000000  -3.410035e-001  2.351490e-001 
2905000000  -2.857109e-001  2.865411e-001 
2910000000  -2.167234e-001  3.292476e-001 
2915000000  -1.345795e-001  3.496868e-001 
2920000000  -4.807680e-002  3.461460e-001 
2925000000  3.767548e-002  3.141277e-001 
2930000000  1.042933e-001  2.506873e-001 
2935000000  1.397790e-001  1.657356e-001 
2940000000  1.392031e-001  7.724409e-002 
2945000000  1.007814e-001  1.521811e-003 
2950000000  3.828021e-002  -4.718211e-002 
2955000000  -3.161154e-002  -6.661939e-002 
2960000000  -1.015269e-001  -6.009950e-002 
2965000000  -1.609582e-001  -2.964055e-002 
2970000000  -2.040583e-001  1.309322e-002 
2975000000  -2.350898e-001  6.532000e-002 
2980000000  -2.502698e-001  1.215713e-001 
2985000000  -2.525161e-001  1.758388e-001 
2990000000  -2.446210e-001  2.301693e-001 
2995000000  -2.265605e-001  2.800880e-001 
3000000000  -2.047550e-001  3.271301e-001 
