!Agilent Technologies,E8363A,US42130174,A.06.04.32
!Agilent E8363A: A.06.04.32
!Date: Tuesday, November 28, 2023 16:31:36
!Correction: S11(Full 1 Port(1)) 
!S1P File: Measurement: S11:
# Hz S  RI   R 50
2000000000  2.046532e-001  -8.286911e-001 
2005000000  1.355710e-001  -8.342581e-001 
2010000000  6.331033e-002  -8.428565e-001 
2015000000  -4.405743e-003  -8.392802e-001 
2020000000  -7.443096e-002  -8.334559e-001 
2025000000  -1.439021e-001  -8.222218e-001 
2030000000  -2.107931e-001  -7.995745e-001 
2035000000  -2.799668e-001  -7.814121e-001 
2040000000  -3.418061e-001  -7.454467e-001 
2045000000  -4.021632e-001  -7.137665e-001 
2050000000  -4.594684e-001  -6.720904e-001 
2055000000  -5.132177e-001  -6.281572e-001 
2060000000  -5.624827e-001  -5.768020e-001 
2065000000  -6.055432e-001  -5.242186e-001 
2070000000  -6.474214e-001  -4.670011e-001 
2075000000  -6.848233e-001  -4.108104e-001 
2080000000  -7.133569e-001  -3.461673e-001 
2085000000  -7.380942e-001  -2.829419e-001 
2090000000  -7.576670e-001  -2.169360e-001 
2095000000  -7.672194e-001  -1.500136e-001 
2100000000  -7.762568e-001  -8.092638e-002 
2105000000  -7.779164e-001  -1.378316e-002 
2110000000  -7.708179e-001  5.336601e-002 
2115000000  -7.608554e-001  1.192932e-001 
2120000000  -7.464393e-001  1.852898e-001 
2125000000  -7.254109e-001  2.499441e-001 
2130000000  -6.996117e-001  3.086109e-001 
2135000000  -6.668662e-001  3.699061e-001 
2140000000  -6.318384e-001  4.206245e-001 
2145000000  -5.949190e-001  4.751039e-001 
2150000000  -5.477232e-001  5.189843e-001 
2155000000  -5.009516e-001  5.666462e-001 
2160000000  -4.497587e-001  6.021169e-001 
2165000000  -3.954840e-001  6.384237e-001 
2170000000  -3.400750e-001  6.686925e-001 
2175000000  -2.816348e-001  6.919225e-001 
2180000000  -2.207349e-001  7.136332e-001 
2185000000  -1.577249e-001  7.258821e-001 
2190000000  -9.434817e-002  7.354411e-001 
2195000000  -2.739041e-002  7.357142e-001 
2200000000  3.324814e-002  7.330577e-001 
2205000000  9.704178e-002  7.208906e-001 
2210000000  1.567353e-001  7.074587e-001 
2215000000  2.166287e-001  6.881024e-001 
2220000000  2.743972e-001  6.596354e-001 
2225000000  3.300650e-001  6.295261e-001 
2230000000  3.813025e-001  5.911669e-001 
2235000000  4.268064e-001  5.501723e-001 
2240000000  4.713318e-001  5.036332e-001 
2245000000  5.074900e-001  4.555395e-001 
2250000000  5.410652e-001  4.019699e-001 
2255000000  5.679834e-001  3.469034e-001 
2260000000  5.873604e-001  2.904433e-001 
2265000000  6.042948e-001  2.305760e-001 
2270000000  6.127399e-001  1.712631e-001 
2275000000  6.156811e-001  1.115386e-001 
2280000000  6.112254e-001  5.167279e-002 
2285000000  6.026739e-001  -7.745550e-003 
2290000000  5.871938e-001  -6.115096e-002 
2295000000  5.644493e-001  -1.136809e-001 
2300000000  5.384982e-001  -1.618126e-001 
2305000000  5.091073e-001  -2.078286e-001 
2310000000  4.731717e-001  -2.514933e-001 
2315000000  4.326878e-001  -2.868273e-001 
2320000000  3.902052e-001  -3.197028e-001 
2325000000  3.451874e-001  -3.469973e-001 
2330000000  2.996762e-001  -3.682595e-001 
2335000000  2.505908e-001  -3.849689e-001 
2340000000  2.018914e-001  -3.950504e-001 
2345000000  1.545400e-001  -4.013485e-001 
2350000000  1.043924e-001  -3.999520e-001 
2355000000  5.910997e-002  -3.931891e-001 
2360000000  1.492405e-002  -3.818745e-001 
2365000000  -2.790744e-002  -3.658192e-001 
2370000000  -6.662682e-002  -3.466928e-001 
2375000000  -1.008714e-001  -3.222651e-001 
2380000000  -1.321932e-001  -2.953768e-001 
2385000000  -1.596468e-001  -2.662431e-001 
2390000000  -1.832770e-001  -2.352225e-001 
2395000000  -2.024073e-001  -2.024110e-001 
2400000000  -2.143656e-001  -1.652092e-001 
2405000000  -2.209542e-001  -1.308107e-001 
2410000000  -2.233433e-001  -9.696626e-002 
2415000000  -2.221986e-001  -6.690128e-002 
2420000000  -2.158031e-001  -3.636584e-002 
2425000000  -2.056751e-001  -1.033551e-002 
2430000000  -1.942685e-001  1.129504e-002 
2435000000  -1.820635e-001  3.160915e-002 
2440000000  -1.665058e-001  4.947834e-002 
2445000000  -1.520065e-001  6.390291e-002 
2450000000  -1.375631e-001  7.454041e-002 
2455000000  -1.233545e-001  8.411157e-002 
2460000000  -1.076801e-001  9.044767e-002 
2465000000  -9.351328e-002  9.647717e-002 
2470000000  -7.913071e-002  1.025121e-001 
2475000000  -6.345222e-002  1.033995e-001 
2480000000  -4.854901e-002  1.019339e-001 
2485000000  -3.302127e-002  9.698919e-002 
2490000000  -2.397849e-002  9.122525e-002 
2495000000  -1.660957e-002  8.624017e-002 
2500000000  -7.931056e-003  7.840245e-002 
2505000000  -1.481484e-003  6.946763e-002 
2510000000  8.378584e-004  5.926632e-002 
2515000000  -6.397790e-004  4.892819e-002 
2520000000  -3.551976e-003  4.075791e-002 
2525000000  -8.095196e-003  3.437382e-002 
2530000000  -1.531549e-002  2.701655e-002 
2535000000  -2.402574e-002  2.382865e-002 
2540000000  -3.121567e-002  2.287545e-002 
2545000000  -4.226139e-002  2.230190e-002 
2550000000  -5.197662e-002  2.423725e-002 
2555000000  -6.270123e-002  2.841626e-002 
2560000000  -7.164311e-002  3.544072e-002 
2565000000  -7.910479e-002  4.270960e-002 
2570000000  -8.590968e-002  5.163623e-002 
2575000000  -9.263967e-002  6.054313e-002 
2580000000  -9.780281e-002  7.038133e-002 
2585000000  -1.026018e-001  8.087488e-002 
2590000000  -1.097920e-001  9.345400e-002 
2595000000  -1.154636e-001  1.099493e-001 
2600000000  -1.186127e-001  1.289286e-001 
2605000000  -1.190621e-001  1.496924e-001 
2610000000  -1.144564e-001  1.703001e-001 
2615000000  -1.094562e-001  1.916430e-001 
2620000000  -9.967934e-002  2.120002e-001 
2625000000  -8.585995e-002  2.338232e-001 
2630000000  -6.903864e-002  2.520801e-001 
2635000000  -5.052613e-002  2.693524e-001 
2640000000  -2.924276e-002  2.850512e-001 
2645000000  -6.615719e-003  2.991448e-001 
2650000000  2.027053e-002  3.132031e-001 
2655000000  4.783845e-002  3.201382e-001 
2660000000  7.753520e-002  3.287568e-001 
2665000000  1.104302e-001  3.297691e-001 
2670000000  1.425337e-001  3.283244e-001 
2675000000  1.733184e-001  3.213998e-001 
2680000000  2.030835e-001  3.164015e-001 
2685000000  2.363468e-001  3.061586e-001 
2690000000  2.672588e-001  2.923214e-001 
2695000000  3.003257e-001  2.742232e-001 
2700000000  3.290196e-001  2.512310e-001 
2705000000  3.559554e-001  2.260580e-001 
2710000000  3.805981e-001  1.969071e-001 
2715000000  4.030002e-001  1.636067e-001 
2720000000  4.204241e-001  1.303083e-001 
2725000000  4.373316e-001  9.369240e-002 
2730000000  4.481625e-001  5.641885e-002 
2735000000  4.549406e-001  1.412471e-002 
2740000000  4.591827e-001  -2.619824e-002 
2745000000  4.578689e-001  -6.977462e-002 
2750000000  4.541119e-001  -1.114524e-001 
2755000000  4.461333e-001  -1.561545e-001 
2760000000  4.326985e-001  -1.979178e-001 
2765000000  4.141729e-001  -2.396632e-001 
2770000000  3.946752e-001  -2.803833e-001 
2775000000  3.659368e-001  -3.199548e-001 
2780000000  3.346879e-001  -3.597549e-001 
2785000000  2.976423e-001  -3.932339e-001 
2790000000  2.567871e-001  -4.264590e-001 
2795000000  2.120215e-001  -4.537678e-001 
2800000000  1.633311e-001  -4.761468e-001 
2805000000  1.083324e-001  -4.924216e-001 
2810000000  5.627375e-002  -5.016600e-001 
2815000000  1.371805e-003  -5.079675e-001 
2820000000  -5.484473e-002  -5.047166e-001 
2825000000  -1.108291e-001  -4.982746e-001 
2830000000  -1.702512e-001  -4.840948e-001 
2835000000  -2.240967e-001  -4.620141e-001 
2840000000  -2.781584e-001  -4.376072e-001 
2845000000  -3.279282e-001  -3.990267e-001 
2850000000  -3.735677e-001  -3.590589e-001 
2855000000  -4.164148e-001  -3.102770e-001 
2860000000  -4.493719e-001  -2.579983e-001 
2865000000  -4.806025e-001  -2.006416e-001 
2870000000  -5.000330e-001  -1.363069e-001 
2875000000  -5.174250e-001  -7.108011e-002 
2880000000  -5.169705e-001  2.266781e-003 
2885000000  -5.102221e-001  7.378458e-002 
2890000000  -4.870441e-001  1.476995e-001 
2895000000  -4.481602e-001  2.173318e-001 
2900000000  -3.932862e-001  2.820175e-001 
2905000000  -3.239334e-001  3.299520e-001 
2910000000  -2.372787e-001  3.622675e-001 
2915000000  -1.444233e-001  3.665338e-001 
2920000000  -5.177771e-002  3.356402e-001 
2925000000  2.188066e-002  2.710580e-001 
2930000000  6.334250e-002  1.877637e-001 
2935000000  6.447336e-002  9.023877e-002 
2940000000  2.228711e-002  9.548002e-003 
2945000000  -4.583757e-002  -4.229840e-002 
2950000000  -1.263800e-001  -6.245523e-002 
2955000000  -2.034884e-001  -4.784408e-002 
2960000000  -2.664902e-001  -1.084376e-002 
2965000000  -3.160396e-001  4.020370e-002 
2970000000  -3.472022e-001  1.017754e-001 
2975000000  -3.608956e-001  1.678835e-001 
2980000000  -3.619118e-001  2.348296e-001 
2985000000  -3.468477e-001  2.935207e-001 
2990000000  -3.274662e-001  3.501842e-001 
2995000000  -2.954498e-001  4.037485e-001 
3000000000  -2.614872e-001  4.512024e-001 
