! TOUCHSTONE file generated by CST MICROWAVE STUDIO
! Date and time: Tue Nov 28 19:31:20 2023
! Project name: center feed with hand _ind_sweep.cst
! Parameters = {AL=32.6; AT=0; AW=1.5; C1=6e-13; Fdy=15.5; Gx=30; Gy=28; L1=4e-09; ST=1.5; ShT=0.035; Sx=30; Sy=30; b=1.5; d=1.5; d1=1; d2=5; h=3}
! Header version: 2018
! Port assignment regex: !\s*Touchstone port\s*([0-9]+)\s*=\s*(CST MWS port|CST DS port)\s*([0-9]+|Zmin|Zmax)\s*\(\"(.*)\"\)(\s*mode\s*([0-9]+))?.*
! Touchstone port assignment:
! Touchstone port 1 = CST MWS port 1 ("")
# GHz S RI R 50
2                    0.253724382     0.860059176
2.001                0.265832077     0.855969743
2.002                0.277891103     0.851702849
2.003                0.289898608     0.847258777
2.004                0.301851736     0.842637865
2.005                0.313747631     0.837840499
2.006                0.325583431     0.832867118
2.007                0.337356279     0.827718212
2.008                0.349063313     0.822394321
2.009                0.360701676     0.816896037
2.01                 0.372268513     0.811224004
2.011                 0.38376097     0.805378916
2.012                0.395176199     0.799361519
2.013                0.406511358     0.793172611
2.014                0.417763609     0.786813041
2.015                0.428930121     0.780283708
2.016                0.440008071     0.773585565
2.017                0.450994648     0.766719613
2.018                0.461887046     0.759686907
2.019                0.472682472     0.752488551
2.02                 0.483378145     0.745125701
2.021                0.493971295     0.737599562
2.022                0.504459167     0.729911391
2.023                0.514839019     0.722062497
2.024                0.525108125     0.714054234
2.025                0.535263774     0.705888013
2.026                0.545303275     0.697565288
2.027                0.555223951     0.689087567
2.028                0.565023145     0.680456406
2.029                0.574698222      0.67167341
2.03                 0.584246565     0.662740233
2.031                 0.59366558     0.653658576
2.032                0.602952692     0.644430191
2.033                0.612105354     0.635056876
2.034                0.621121039     0.625540476
2.035                0.629997255      0.61588288
2.036                0.638731518     0.606086033
2.037                 0.64732138     0.596151921
2.038                0.655764421     0.586082577
2.039                0.664058247      0.57588008
2.04                 0.672200495     0.565546552
2.041                0.680188831     0.555084164
2.042                 0.68802095     0.544495127
2.043                0.695694582       0.5337817
2.044                0.703207485     0.522946183
2.045                0.710557453     0.511990919
2.046                0.717742313     0.500918297
2.047                0.724759927     0.489730744
2.048                 0.73160819     0.478430732
2.049                0.738285036     0.467020773
2.05                 0.744788434     0.455503418
2.051                0.751116391     0.443881261
2.052                0.757266953     0.432156935
2.053                0.763238203     0.420333111
2.054                0.769028268     0.408412499
2.055                 0.77463531     0.396397847
2.056                0.780057536     0.384291942
2.057                0.785293193     0.372097605
2.058                0.790340573     0.359817696
2.059                0.795198008     0.347455109
2.06                 0.799863877     0.335012772
2.061                0.804336602     0.322493652
2.062                 0.80861465     0.309900744
2.063                0.812696536     0.297237079
2.064                 0.81658082     0.284505722
2.065                 0.82026611     0.271709767
2.066                0.823751061      0.25885234
2.067                0.827034378     0.245936599
2.068                0.830114816     0.232965729
2.069                0.832991177     0.219942946
2.07                 0.835662315     0.206871494
2.071                0.838127137     0.193754644
2.072                  0.8403846     0.180595696
2.073                0.842433712     0.167397972
2.074                0.844273537     0.154164824
2.075                0.845903191     0.140899625
2.076                0.847321843     0.127605774
2.077                 0.84852872     0.114286692
2.078                  0.8495231     0.100945822
2.079                0.850304321    0.0875866293
2.08                 0.850871775    0.0742125991
2.081                0.851224911    0.0608272362
2.082                0.851363237    0.0474340648
2.083                0.851286317    0.0340366265
2.084                0.850993776    0.0206384804
2.085                0.850485295   0.00724320156
2.086                 0.84976062  -0.00614561934
2.087                 0.84881955   -0.0195243771
2.088                0.847661949   -0.0328894535
2.089                0.846287739   -0.0462372177
2.09                 0.844696908   -0.0595640274
2.091                0.842889501   -0.0728662295
2.092                0.840865628   -0.0861401617
2.093                0.838625463   -0.0993821527
2.094                 0.83616924    -0.112588524
2.095                 0.83349726     -0.12575559
2.096                0.830609885    -0.138879661
2.097                0.827507544     -0.15195704
2.098                0.824190729     -0.16498403
2.099                0.820659999     -0.17795693
2.1                  0.816915977    -0.190872036
2.101                0.812959351    -0.203725648
2.102                0.808790878    -0.216514065
2.103                0.804411379    -0.229233586
2.104                0.799821743    -0.241880516
2.105                0.795022925    -0.254451165
2.106                0.790015949    -0.266941847
2.107                0.784801905    -0.279348882
2.108                0.779381951    -0.291668602
2.109                0.773757313    -0.303897343
2.11                 0.767929285    -0.316031457
2.111                 0.76189923    -0.328067303
2.112                0.755668578    -0.340001256
2.113                0.749238829    -0.351829706
2.114                 0.74261155    -0.363549055
2.115                0.735788379    -0.375155726
2.116                 0.72877102    -0.386646157
2.117                0.721561248    -0.398016809
2.118                0.714160906    -0.409264161
2.119                0.706571905    -0.420384715
2.12                 0.698796225    -0.431374997
2.121                0.690835916     -0.44223156
2.122                0.682693095     -0.45295098
2.123                0.674369948    -0.463529864
2.124                0.665868729    -0.473964845
2.125                 0.65719176     -0.48425259
2.126                0.648341431    -0.494389796
2.127                0.639320201    -0.504373194
2.128                0.630130594    -0.514199551
2.129                0.620775202     -0.52386567
2.13                 0.611256685    -0.533368391
2.131                0.601577767    -0.542704595
2.132                0.591741239    -0.551871202
2.133                0.581749959    -0.560865176
2.134                0.571606848    -0.569683524
2.135                0.561314893    -0.578323298
2.136                0.550877144    -0.586781599
2.137                0.540296714    -0.595055574
2.138                0.529576782     -0.60314242
2.139                0.518720584    -0.611039387
2.14                 0.507731423    -0.618743775
2.141                0.496612659    -0.626252942
2.142                0.485367714    -0.633564298
2.143                0.474000069    -0.640675312
2.144                0.462513263    -0.647583513
2.145                0.450910892    -0.654286489
2.146                 0.43919661    -0.660781887
2.147                0.427374126    -0.667067423
2.148                0.415447204    -0.673140871
2.149                0.403419663    -0.679000077
2.15                 0.391295372     -0.68464295
2.151                0.379078253    -0.690067471
2.152                0.366772278    -0.695271688
2.153                0.354381471    -0.700253723
2.154                0.341909899    -0.705011771
2.155                0.329361679      -0.7095441
2.156                0.316740974    -0.713849056
2.157                0.304051989    -0.717925058
2.158                0.291298973    -0.721770608
2.159                0.278486216    -0.725384284
2.16                 0.265618048    -0.728764747
2.161                0.252698837    -0.731910738
2.162                0.239732988    -0.734821084
2.163                0.226724942    -0.737494694
2.164                0.213679171    -0.739930563
2.165                0.200600183    -0.742127773
2.166                0.187492512    -0.744085495
2.167                0.174360724    -0.745802986
2.168                 0.16120941    -0.747279596
2.169                0.148043187    -0.748514763
2.17                 0.134866693    -0.749508019
2.171                0.121684609    -0.750258984
2.172                0.108501596    -0.750767378
2.173               0.0953223513    -0.751033013
2.174               0.0821515878    -0.751055796
2.175               0.0689940322    -0.750835728
2.176               0.0558544223    -0.750372909
2.177               0.0427375055    -0.749667534
2.178               0.0296480365    -0.748719899
2.179               0.0165907751    -0.747530394
2.18               0.00357048426    -0.746099513
2.181              -0.0094080721    -0.744427845
2.182              -0.0223401314    -0.742516081
2.183              -0.0352209345    -0.740365012
2.184              -0.0480457281    -0.737975529
2.185              -0.0608097665    -0.735348625
2.186              -0.0735083145    -0.732485392
2.187              -0.0861366494    -0.729387024
2.188               -0.098690063    -0.726054818
2.189               -0.111163864    -0.722490171
2.19                -0.123553382    -0.718694579
2.191               -0.135853966    -0.714669643
2.192               -0.148060991    -0.710417064
2.193               -0.160169858    -0.705938643
2.194               -0.172175996    -0.701236281
2.195               -0.184074865    -0.696311983
2.196                -0.19586196     -0.69116785
2.197               -0.207532812    -0.685806086
2.198               -0.219082988    -0.680228991
2.199               -0.230508097    -0.674438967
2.2                 -0.241803791    -0.668438511
2.201               -0.252965769     -0.66223022
2.202               -0.263989774    -0.655816786
2.203               -0.274871602    -0.649200997
2.204               -0.285607101    -0.642385738
2.205               -0.296192172    -0.635373986
2.206               -0.306622775    -0.628168812
2.207               -0.316894929    -0.620773381
2.208               -0.327004713    -0.613190945
2.209               -0.336948271     -0.60542485
2.21                -0.346721815     -0.59747853
2.211               -0.356321621    -0.589355506
2.212                -0.36574404    -0.581059384
2.213               -0.374985493    -0.572593858
2.214               -0.384042477    -0.563962703
2.215               -0.392911564    -0.555169778
2.216               -0.401589409    -0.546219019
2.217               -0.410072744    -0.537114446
2.218               -0.418358387    -0.527860151
2.219               -0.426443239    -0.518460306
2.22                 -0.43432429    -0.508919153
2.221               -0.441998618    -0.499241009
2.222               -0.449463393    -0.489430259
2.223               -0.456715876    -0.479491358
2.224               -0.463753424    -0.469428825
2.225                -0.47057349    -0.459247245
2.226               -0.477173624    -0.448951264
2.227               -0.483551479    -0.438545589
2.228               -0.489704805    -0.428034984
2.229               -0.495631457    -0.417424269
2.23                -0.501329396    -0.406718318
2.231               -0.506796687    -0.395922055
2.232               -0.512031502    -0.385040453
2.233               -0.517032123    -0.374078532
2.234               -0.521796943    -0.363041356
2.235               -0.526324463     -0.35193403
2.236                 -0.5306133    -0.340761697
2.237               -0.534662184     -0.32952954
2.238               -0.538469957    -0.318242773
2.239               -0.542035582    -0.306906641
2.24                -0.545358133     -0.29552642
2.241               -0.548436808     -0.28410741
2.242               -0.551270918    -0.272654936
2.243               -0.553859897    -0.261174344
2.244               -0.556203299    -0.249670996
2.245               -0.558300796     -0.23815027
2.246               -0.560152185    -0.226617557
2.247               -0.561757383    -0.215078258
2.248               -0.563116431    -0.203537779
2.249               -0.564229491    -0.192001531
2.25                 -0.56509685    -0.180474927
2.251               -0.565718918    -0.168963377
2.252               -0.566096229    -0.157472287
2.253                -0.56622944    -0.146007054
2.254               -0.566119333    -0.134573065
2.255               -0.565766814    -0.123175696
2.256               -0.565172914    -0.111820303
2.257               -0.564338785    -0.100512224
2.258               -0.563265706   -0.0892567767
2.259               -0.561955077   -0.0780592502
2.26                -0.560408422   -0.0669249075
2.261               -0.558627389   -0.0558589798
2.262               -0.556613745   -0.0448666642
2.263               -0.554369382   -0.0339531209
2.264               -0.551896312   -0.0231234698
2.265               -0.549196666   -0.0123827878
2.266               -0.546272696  -0.00173610614
2.267               -0.543126774   0.00881159312
2.268               -0.539761378    0.0192553799
2.269               -0.536179122    0.0295903785
2.27                -0.532382728    0.0398117709
2.271               -0.528375031    0.0499147996
2.272               -0.524158982    0.0598947705
2.273               -0.519737641    0.0697470557
2.274               -0.515114182    0.0794670963
2.275               -0.510291886    0.0890504054
2.276               -0.505274145    0.0984925707
2.277               -0.500064454     0.107789257
2.278               -0.494666416     0.116936211
2.279               -0.489083735     0.125929259
2.28                -0.483320219     0.134764316
2.281               -0.477379772     0.143437383
2.282               -0.471266399     0.151944554
2.283               -0.464984198     0.160282015
2.284               -0.458537364     0.168446047
2.285               -0.451930179     0.176433032
2.286               -0.445167018      0.18423945
2.287               -0.438252342     0.191861888
2.288               -0.431190697     0.199297035
2.289               -0.423986709      0.20654169
2.29                -0.416645088     0.213592762
2.291               -0.409170618     0.220447273
2.292               -0.401568158     0.227102358
2.293               -0.393842642     0.233555272
2.294                -0.38599907     0.239803385
2.295               -0.378042509     0.245844191
2.296               -0.369978091     0.251675305
2.297               -0.361811009     0.257294469
2.298               -0.353546512      0.26269955
2.299               -0.345189905     0.267888542
2.3                 -0.336746543     0.272859571
2.301               -0.328221832     0.277610895
2.302               -0.319621222     0.282140904
2.303               -0.310950204     0.286448122
2.304               -0.302214309      0.29053121
2.305               -0.293419102     0.294388967
2.306               -0.284570181      0.29802033
2.307               -0.275673172     0.301424374
2.308               -0.266733725     0.304600317
2.309               -0.257757512     0.307547518
2.31                -0.248750222     0.310265477
2.311               -0.239717559      0.31275384
2.312               -0.230665236     0.315012395
2.313               -0.221598974     0.317041076
2.314               -0.212524495     0.318839961
2.315               -0.203447521     0.320409273
2.316               -0.194373768     0.321749384
2.317               -0.185308946     0.322860807
2.318                -0.17625875     0.323744205
2.319               -0.167228857     0.324400386
2.32                -0.158224928     0.324830303
2.321               -0.149252597     0.325035055
2.322               -0.140317468     0.325015887
2.323               -0.131425116     0.324774189
2.324               -0.122581078     0.324311494
2.325               -0.113790852     0.323629479
2.326               -0.105059889     0.322729965
2.327              -0.0963935959     0.321614912
2.328              -0.0877973246     0.320286423
2.329              -0.0792763722     0.318746741
2.33               -0.0708359757     0.316998245
2.331              -0.0624813083     0.315043453
2.332              -0.0542174756     0.312885017
2.333              -0.0460495117     0.310525723
2.334              -0.0379823754     0.307968491
2.335              -0.0300209464     0.305216367
2.336              -0.0221700218     0.302272529
2.337               -0.014434312     0.299140278
2.338             -0.00681843736     0.295823041
2.339               0.0006730753     0.292324365
2.34               0.00803579647     0.288647916
2.341               0.0152653973     0.284797476
2.342               0.0223576528     0.280776942
2.343               0.0293084456      0.27659032
2.344               0.0361137688     0.272241724
2.345               0.0427697291     0.267735375
2.346               0.0492725504     0.263075592
2.347                0.055618576     0.258266796
2.348               0.0618042724     0.253313501
2.349               0.0678262311     0.248220312
2.35                0.0736811723     0.242991924
2.351               0.0793659468     0.237633116
2.352               0.0848775387     0.232148746
2.353               0.0902130679     0.226543751
2.354               0.0953697921      0.22082314
2.355                0.100345109      0.21499199
2.356                 0.10513656     0.209055446
2.357                0.109741827      0.20301871
2.358                0.114158741     0.196887044
2.359                 0.11838528      0.19066576
2.36                 0.122419569     0.184360219
2.361                0.126259885     0.177975827
2.362                0.129904656     0.171518027
2.363                0.133352463     0.164992299
2.364                0.136602051     0.158404151
2.365                0.139652297     0.151759119
2.366                0.142502246     0.145062759
2.367                0.145151097     0.138320645
2.368                0.147598205     0.131538362
2.369                0.149843081     0.124721503
2.37                 0.151885393     0.117875663
2.371                0.153724965     0.111006437
2.372                0.155361776     0.104119411
2.373                 0.15679596     0.097220163
2.374                0.158027809    0.0903142536
2.375                0.159057766    0.0834072238
2.376                0.159886428    0.0765045897
2.377                0.160514547    0.0696118385
2.378                0.160943022    0.0627344235
2.379                0.161172905    0.0558777602
2.38                 0.161205397    0.0490472213
2.381                0.161041844    0.0422481329
2.382                0.160683738      0.03548577
2.383                0.160132716    0.0287653522
2.384                0.159390554    0.0220920399
2.385                0.158459169    0.0154709298
2.386                0.157340615    0.0089070512
2.387                0.156037082   0.00240536206
